# HZ S RI R 50
14000000 0.29538752 -0.234450656
14140000 0.070966912 -0.420733824
14280000 -0.260221776 -0.394671904
14420000 -0.48762016 -0.099865248
14560000 -0.402681568 0.276944
14700000 -0.082463848 0.448594496
14840000 0.229197072 0.355663712
14980000 0.389107264 0.106277064
15120000 0.354264544 -0.179122448
15260000 0.12282376 -0.369572384
15400000 -0.169684832 -0.273839392
15540000 -0.113244584 -0.0831872
15680000 -0.188011712 -0.196407536
15820000 -0.396208128 0.02699246
15960000 -0.249810288 0.347413088
16100000 0.081460336 0.40843552
16240000 0.328535808 0.232753968
16380000 0.401343456 -0.041422272
16520000 0.290707168 -0.303522624
16660000 0.021879546 -0.448522464
16800000 -0.30882048 -0.362600832
16940000 -0.47972848 -0.030541556
17080000 -0.321492224 0.30961872
17220000 0.012030566 0.376768864
17360000 0.199852816 0.173567392
17500000 0.113727928 0.083235232
17640000 0.25453648 0.094565984
17780000 0.32134848 -0.144120672
17920000 0.158814944 -0.36981216
18060000 -0.146728864 -0.419376672
18200000 -0.42183888 -0.209872384
18340000 -0.443465248 0.154876288
18480000 -0.1893608 0.40036416
18620000 0.129854264 0.389909216
18760000 0.338900864 0.192747184
18900000 0.375751136 -0.074224232
19040000 0.234638384 -0.303530528
19180000 -0.032347672 -0.364361664
19320000 -0.19697056 -0.206390512
19460000 -0.21220112 -0.140632224
19600000 -0.348343648 -0.013940283
19740000 -0.288006592 0.269497504
19880000 -0.00922214 0.393922336
20020000 0.254406784 0.28457536
20160000 0.376132832 0.047856192
20300000 0.330502496 -0.209857712
20440000 0.129033032 -0.394681248
20580000 -0.169758208 -0.40784944
20720000 -0.413395904 -0.187898976
20860000 -0.408627584 0.14998176
21000000 -0.16260896 0.34734256
21140000 0.08965916 0.295788928
21280000 0.175977312 0.164506464
21420000 0.24827576 0.090067936
21560000 0.307623072 -0.090604968
21700000 0.205666784 -0.304184832
21840000 -0.044483344 -0.406335808
21980000 -0.32861568 -0.294513984
22120000 -0.451007264 0.014100682
22260000 -0.302097984 0.31286064
22400000 -0.005262884 0.404893472
22540000 0.248654704 0.286572864
22680000 0.361562432 0.055157464
22820000 0.309469504 -0.187190384
22960000 0.114052072 -0.332935648
23100000 -0.096057576 -0.296030976
23240000 -0.19246704 -0.215956704
23380000 -0.331980256 -0.10758176
23520000 -0.354863616 0.161572896
23660000 -0.138107984 0.364355008
23800000 0.14529696 0.344422304
23940000 0.329691168 0.1553996
24080000 0.357623968 -0.096174936
24220000 0.226744256 -0.317319168
24360000 -0.030042774 -0.41631952
24500000 -0.31157056 -0.309146112
24640000 -0.436685536 -0.013007537
24780000 -0.295809632 0.270575328
24920000 -0.022068176 0.33236032
25060000 0.13093464 0.204893632
25200000 0.177822352 0.148508528
25340000 0.296476 0.022793496
25480000 0.273230336 -0.20875704
25620000 0.074241496 -0.376893024
25760000 -0.215087056 -0.36089456
25900000 -0.42388016 -0.122825408
26040000 -0.38887792 0.201278384
26180000 -0.141623664 0.390059712
26320000 0.1403464 0.36137536
26460000 0.323065984 0.178453824
26600000 0.35524608 -0.066202484
26740000 0.226351552 -0.278810976
26880000 -0.021453974 -0.334661056
27020000 -0.15120184 -0.197134816
27160000 -0.221426576 -0.178023168
27300000 -0.365318368 0.02128724
27440000 -0.243791904 0.296018656
27580000 0.036950652 0.370529184
27720000 0.268732128 0.241386944
27860000 0.361846368 0.012791673
28000000 0.3027616 -0.222862192
