# HZ S RI R 50
3000000 -0.491580672 -0.422458752
3250000 -0.3737464 0.49431264
3500000 0.402152992 0.319706016
3750000 0.221740416 -0.420247808
4000000 0.160347888 0.216205664
4250000 -0.097460072 -0.48320128
4500000 -0.532660832 0.240999184
4750000 0.204731856 0.471998848
5000000 0.479268896 -0.090880376
5250000 0.010126058 -0.53876512
5500000 -0.547393344 0.032522548
5750000 0.162630496 0.20734816
6000000 -0.201631648 0.222120672
6250000 0.399519456 0.132944552
6500000 0.208098592 -0.432825248
6750000 -0.470327392 -0.295601088
7000000 -0.299038528 0.433932736
7250000 0.323593568 0.298034304
7500000 0.278530176 -0.245892464
7750000 -0.052667552 -0.077274888
8000000 -0.12037552 -0.318655712
8250000 -0.430203392 0.207356736
8500000 0.160826272 0.420164032
8750000 0.428009056 -0.040009696
9000000 0.090016216 -0.454481856
9250000 -0.463738368 -0.156082384
9500000 -0.100411824 0.357984544
9750000 0.04641666 0.04443632
10000000 0.2934056 0.164535248
10250000 0.241881952 -0.355795072
10500000 -0.352868512 -0.348190528
10750000 -0.387819872 0.298476416
11000000 0.19489248 0.379822784
11250000 0.378233984 -0.099938832
11500000 -0.075668088 -0.3115936
11750000 -0.015353349 -0.171032272
12000000 -0.433413888 0.056309764
12250000 0.03297561 0.42445744
12500000 0.396835104 0.081583976
12750000 0.217159664 -0.376768736
13000000 -0.359374688 -0.31730032
13250000 -0.290134592 0.31222224
13500000 0.159509568 0.154760192
13750000 0.177514816 0.165168944
14000000 0.295175424 -0.235147312
14250000 -0.190122016 -0.4255384
14500000 -0.480402816 0.127107976
14750000 0.04041944 0.44181296
15000000 0.39688992 0.065617828
15250000 0.145330048 -0.362830912
15500000 -0.162436848 -0.096399408
15750000 -0.323990048 -0.132193032
16000000 -0.15894328 0.396453088
16250000 0.340034144 0.21505384
16500000 0.317552928 -0.270374016
16750000 -0.195280208 -0.425124
17000000 -0.451162432 0.134220256
17250000 0.07493116 0.35025968
17500000 0.114071376 0.083575536
17750000 0.327977504 -0.086505336
18000000 -0.006870039 -0.427647648
18250000 -0.466573568 -0.084137272
18500000 -0.142575376 0.41441856
18750000 0.32899168 0.210578912
19000000 0.292481824 -0.248392816
19250000 -0.147202464 -0.300183808
19500000 -0.247820176 -0.130914096
19750000 -0.272411328 0.28668368
20000000 0.224216752 0.31091504
20250000 0.365938208 -0.12132156
20500000 0.006958178 -0.427310208
20750000 -0.437450752 -0.1174172
21000000 -0.162859488 0.34751504
21250000 0.168277616 0.186607648
21500000 0.297821472 1.8263e-05
21750000 0.129676656 -0.359994816
22000000 -0.360744672 -0.25911448
22250000 -0.320143552 0.297035712
22500000 0.187961568 0.336987744
22750000 0.356300064 -0.070527968
23000000 0.046050596 -0.341548352
23250000 -0.200615088 -0.21249864
23500000 -0.367836288 0.120536112
23750000 0.049362456 0.3762632
24000000 0.361722112 0.049631968
24250000 0.180763728 -0.352003072
24500000 -0.31155632 -0.309274304
24750000 -0.34558864 0.223745632
25000000 0.092039664 0.267508688
25250000 0.223413664 0.125124528
25500000 0.254497824 -0.239946704
25750000 -0.194469136 -0.36993808
26000000 -0.426405984 0.113677808
26250000 0.005429759 0.400813504
26500000 0.348284736 0.111056552
26750000 0.211546272 -0.28964224
27000000 -0.149686896 -0.21505072
27250000 -0.335880832 -0.078112264
27500000 -0.128296616 0.35782912
27750000 0.301251904 0.197354352
28000000 0.30267056 -0.222715856
