# HZ S RI R 50
4000000 0.158464112 0.215500176
4100000 0.310766528 -0.17295184
4200000 0.083628 -0.440979648
4300000 -0.286071776 -0.44482384
4400000 -0.554574208 -0.157451616
4500000 -0.532956352 0.240025152
4600000 -0.263635488 0.495484
4700000 0.06359282 0.525070912
4800000 0.319025024 0.387478848
4900000 0.459330688 0.163083648
5000000 0.47916144 -0.088023048
5100000 0.377695168 -0.328808192
5200000 0.15787456 -0.50023664
5300000 -0.152763728 -0.530393824
5400000 -0.452488768 -0.342576864
5500000 -0.547229568 0.032585646
5600000 -0.319086496 0.352869376
5700000 0.048431404 0.343411968
5800000 0.167443776 0.035670384
5900000 -0.11930212 -0.085691672
6000000 -0.215373392 0.2423836
6100000 0.07681704 0.379166816
6200000 0.33057504 0.247198768
6300000 0.429414336 0.007608243
6400000 0.381972288 -0.239551408
6500000 0.208010048 -0.43224608
6600000 -0.061337524 -0.509769152
6700000 -0.354558592 -0.414143584
6800000 -0.543348096 -0.1414556
6900000 -0.518362656 0.196786032
7000000 -0.298699264 0.43413744
7100000 -0.009186951 0.49014368
7200000 0.23670576 0.388831136
7300000 0.381482208 0.189980192
7400000 0.399740576 -0.0430378
7500000 0.277649312 -0.24711968
7600000 0.050064772 -0.30445184
7700000 -0.087404072 -0.150329216
7800000 0.019895662 -0.064589568
7900000 0.061308172 -0.207842704
8000000 -0.120136776 -0.31955312
8100000 -0.364517312 -0.21909336
8200000 -0.466109376 0.058602376
8300000 -0.345411968 0.332585376
8400000 -0.093058072 0.458428448
8500000 0.1610732 0.419985792
8600000 0.341190048 0.27081408
8700000 0.424012096 0.067623496
8800000 0.407340608 -0.146781856
8900000 0.292781344 -0.335478208
9000000 0.089222624 -0.454507744
9100000 -0.167768272 -0.451376256
9200000 -0.397260864 -0.288940608
9300000 -0.479279648 -0.002172066
9400000 -0.350050144 0.259830528
9500000 -0.098859584 0.356754816
9600000 0.106677752 0.25184184
9700000 0.11268716 0.074805224
9800000 -0.011067497 0.090058592
9900000 0.085505256 0.23277096
10000000 0.292321056 0.161440992
10100000 0.377568768 -0.046089004
10200000 0.31786112 -0.265704512
10300000 0.140222976 -0.422699744
10400000 -0.10872676 -0.4616344
10500000 -0.353365888 -0.347714656
10600000 -0.494298944 -0.102765752
10700000 -0.463828096 0.1805584
10800000 -0.281339232 0.386421728
10900000 -0.031995744 0.450611296
11000000 0.195196624 0.379696864
11100000 0.345998656 0.21587848
11200000 0.395609568 0.007582592
11300000 0.33123584 -0.199449568
11400000 0.153702768 -0.337185504
11500000 -0.075817064 -0.311313792
11600000 -0.15069216 -0.122874072
11700000 -0.023997924 -0.092171464
11800000 -0.08219892 -0.240418416
11900000 -0.319997952 -0.202210464
12000000 -0.433313216 0.056083136
12100000 -0.318773504 0.31370048
12200000 -0.086602216 0.425121216
12300000 0.142146912 0.392921568
12400000 0.310096256 0.264150656
12500000 0.396853856 0.081802368
12600000 0.393772224 -0.118988304
12700000 0.29812624 -0.30325312
12800000 0.115744736 -0.429735168
12900000 -0.126931432 -0.447967584
13000000 -0.359814144 -0.317245024
13100000 -0.473050304 -0.056414708
13200000 -0.393699264 0.218104208
13300000 -0.166001536 0.362574336
13400000 0.06678816 0.318732736
13500000 0.161304176 0.154165856
13600000 0.084496152 0.071322488
13700000 0.098475776 0.157081872
13800000 0.254876256 0.125264064
13900000 0.336377088 -0.043136884
14000000 0.2956976 -0.234765984
