# HZ S RI R 50
14000000 -0.232816592 0.116850656
14100000 -0.032166574 0.210153568
14200000 0.142101776 0.10842956
14300000 0.16702104 -0.071364608
14400000 0.0601793 -0.202169552
14500000 -0.105250152 -0.222244624
14600000 -0.243530128 -0.119425544
14700000 -0.272537376 0.058025272
14800000 -0.16350136 0.20718312
14900000 0.022035724 0.228220368
15000000 0.153986336 0.098918912
15100000 0.12929256 -0.07912868
15200000 -0.024287802 -0.155730608
15300000 -0.172730848 -0.079976488
15400000 -0.207071872 0.077817096
15500000 -0.120985216 0.207183184
15600000 0.025066304 0.246774656
15700000 0.162675296 0.18583528
15800000 0.2292408 0.039132304
15900000 0.179074608 -0.106890032
16000000 0.018964824 -0.155087184
16100000 -0.092368704 -0.041686956
16200000 -0.04597916 0.090708072
16300000 0.073896032 0.122842168
16400000 0.173043968 0.064946784
16500000 0.219252528 -0.03950592
16600000 0.199002624 -0.158738688
16700000 0.10573172 -0.256166336
16800000 -0.046430592 -0.271426688
16900000 -0.152673824 -0.155553008
17000000 -0.108804304 -0.03777066
17100000 -0.024477254 -0.036226516
17200000 0.001181037 -0.095069984
17300000 -0.031172858 -0.152702368
17400000 -0.1010134 -0.180365616
17500000 -0.189491984 -0.166118736
17600000 -0.274763424 -0.0985108
17700000 -0.31724576 0.029595802
17800000 -0.2550044 0.162804528
17900000 -0.141587136 0.207548336
18000000 -0.066366008 0.189619936
18100000 -0.027290948 0.165499136
18200000 -0.002286448 0.148004352
18300000 0.01205253 0.132416216
18400000 0.015935311 0.125869896
18500000 0.019953516 0.14243904
18600000 0.05718628 0.184658352
18700000 0.1587364 0.189595856
18800000 0.25255584 0.106736792
18900000 0.27290192 -0.013655535
19000000 0.231936064 -0.119241016
19100000 0.150968 -0.187318144
19200000 0.049507592 -0.200264592
19300000 -0.03321584 -0.149432704
19400000 -0.043059952 -0.056709904
19500000 0.039556244 -0.011052696
19600000 0.12290892 -0.083072656
19700000 0.100585552 -0.212602432
19800000 -0.02531177 -0.289810496
19900000 -0.181897776 -0.261054304
20000000 -0.287586368 -0.134337168
20100000 -0.286317888 0.03266387
20200000 -0.173424128 0.151020672
20300000 -0.01960343 0.148893392
20400000 0.06829468 0.035188052
20500000 0.021951714 -0.09953292
20600000 -0.12489888 -0.133576408
20700000 -0.248210816 -0.02145234
20800000 -0.236360128 0.152463584
20900000 -0.099730328 0.266722832
21000000 0.0735428 0.2561912
21100000 0.193627232 0.134594528
21200000 0.197613888 -0.034996776
21300000 0.07190032 -0.152234592
21400000 -0.097783984 -0.122363056
21500000 -0.165452816 0.032698888
21600000 -0.082106112 0.17338464
21700000 0.072952376 0.197366912
21800000 0.196469152 0.105464552
21900000 0.224400208 -0.049588692
22000000 0.130602328 -0.189307904
22100000 -0.051116152 -0.208550288
22200000 -0.173155728 -0.066202132
22300000 -0.123393872 0.101914432
22400000 0.021879078 0.156499504
22500000 0.147499872 0.096393416
22600000 0.199097584 -0.0261332
22700000 0.158862096 -0.155822784
22800000 0.03161884 -0.2269588
22900000 -0.108997496 -0.173776112
23000000 -0.13103248 -0.040007072
23100000 -0.052216932 0.02286943
23200000 0.01759479 0.000243357
23300000 0.042373344 -0.05705194
23400000 0.02350379 -0.118178552
23500000 -0.035922984 -0.166575408
23600000 -0.136882864 -0.172575696
23700000 -0.239624496 -0.092418168
23800000 -0.251545696 0.052884908
23900000 -0.161775296 0.152640624
24000000 -0.053130984 0.1649956
