# HZ S RI R 50
3000000 0.403052224 0.160114736
3250000 0.182557104 -0.343980864
3500000 -0.273380736 0.191790112
3750000 0.386340864 -0.037640676
4000000 -0.082423256 -0.448297664
4250000 -0.30126752 0.340887264
4500000 0.368141184 -0.162220464
4750000 -0.290498304 -0.360813888
5000000 -0.292085408 0.327308672
5250000 0.298455104 -0.123195112
5500000 -0.434748608 -0.089456248
5750000 -0.082751608 0.406951232
6000000 0.288217696 0.047186808
6250000 -0.208673936 0.088914808
6500000 0.24295608 0.23543536
6750000 0.343583392 -0.11239684
7000000 0.01673248 -0.276722624
7250000 0.05391776 -0.161913824
7500000 -0.079455944 -0.281735328
7750000 -0.304910784 -0.20379424
8000000 -0.348383232 0.164725904
8250000 -0.082623096 0.251890096
8500000 0.02786322 0.122439672
8750000 -0.056439332 0.224981392
9000000 0.292940064 0.159568176
9250000 0.209677152 -0.166723744
9500000 -0.072079936 -0.077992704
9750000 0.216811104 -0.002476012
10000000 0.008826361 -0.348827136
10250000 -0.310378752 -0.036057176
10500000 0.073291992 0.117604472
10750000 -0.091205656 -0.24029232
11000000 -0.291661888 0.173221248
11250000 0.165174 0.20163304
11500000 0.011604557 -0.201585104
11750000 -0.183174752 0.192182736
12000000 0.242497648 0.132351144
12250000 0.052197404 -0.2653496
12500000 -0.184739648 0.149947888
12750000 0.232019184 0.062647684
13000000 0.015276463 -0.285190432
13250000 -0.205973328 0.14908216
13500000 0.211743424 0.020065998
13750000 -0.03237049 -0.268261408
14000000 -0.231456768 0.116384496
14250000 0.173131104 0.01890749
14500000 -0.105162048 -0.2224088
14750000 -0.233219344 0.143086576
15000000 0.152955152 0.097187096
15250000 -0.108530952 -0.134460288
15500000 -0.121834072 0.207501344
15750000 0.209873456 0.123714376
16000000 0.018023644 -0.155007072
16250000 0.010761882 0.121820536
16500000 0.219669952 -0.038281328
16750000 0.03334063 -0.278051712
17000000 -0.10790548 -0.034457456
17250000 -0.004240153 -0.127868416
17500000 -0.18876632 -0.170619632
17750000 -0.29946864 0.101052616
18000000 -0.069022576 0.182704736
18250000 -0.004529459 0.140715968
18500000 0.019409718 0.15087416
18750000 0.213615152 0.1592712
19000000 0.234032864 -0.114052944
19250000 0.010496363 -0.18370464
19500000 0.03856174 -0.015365481
19750000 0.046627292 -0.263643088
20000000 -0.286719456 -0.137710432
20250000 -0.099083688 0.16667208
20500000 0.021542172 -0.098570224
20750000 -0.260838544 0.065905884
21000000 0.072273544 0.256470416
21250000 0.147134624 -0.106432968
21500000 -0.166216208 0.033745852
21750000 0.143581088 0.163678192
22000000 0.129345176 -0.188469872
22250000 -0.167018128 0.02777042
22500000 0.147552976 0.095816968
22750000 0.104677776 -0.204626288
23000000 -0.12963432 -0.040326016
23250000 0.035606796 -0.027588944
23500000 -0.036458336 -0.166711456
23750000 -0.261594272 -0.02116746
24000000 -0.053960104 0.163992208
24250000 0.040380316 0.017005172
24500000 -0.120267888 0.034735276
24750000 0.09319352 0.195021792
25000000 0.167755744 -0.072432528
25250000 -0.067034728 -0.079445568
25500000 0.072449864 0.103023288
25750000 0.139397712 -0.165203024
26000000 -0.146919184 -0.12151864
26250000 0.000873544 0.083123408
26500000 0.08180512 -0.150096208
26750000 -0.212624288 -0.092288152
27000000 -0.029131382 0.121662168
27250000 0.041311644 -0.084026352
27500000 -0.199225776 -0.027863438
27750000 0.000148549 0.190832384
28000000 0.09959804 -0.016016705
