# HZ S RI R 50
4000000 -0.081876968 -0.448440896
4100000 -0.386983008 -0.282172512
4200000 -0.45091248 0.142888144
4300000 -0.06425064 0.426803872
4400000 0.334446368 0.214817232
4500000 0.367755296 -0.16226616
4600000 0.14790672 -0.403288992
4700000 -0.154636208 -0.430737376
4800000 -0.395693888 -0.250812176
4900000 -0.456469216 0.048410064
5000000 -0.269602944 0.331355648
5100000 0.067055412 0.361019328
5200000 0.310467008 0.078745592
5300000 0.18136296 -0.290070784
5400000 -0.200035904 -0.3483016
5500000 -0.43160032 -0.08456408
5600000 -0.394914144 0.209959728
5700000 -0.199529568 0.380116448
5800000 0.03250593 0.398626976
5900000 0.225283648 0.281766912
6000000 0.29309728 0.04798544
6100000 0.131910248 -0.182655536
6200000 -0.181279568 -0.077021376
6300000 -0.14536768 0.220030672
6400000 0.06813376 0.305818368
6500000 0.243448944 0.2362476
6600000 0.332025824 0.104626904
6700000 0.355012576 -0.039042304
6800000 0.313875328 -0.182820384
6900000 0.190872528 -0.294618144
7000000 0.017296024 -0.275909856
7100000 -0.010976804 -0.159730256
7200000 0.038052144 -0.14205016
7300000 0.054909484 -0.196087648
7400000 0.006212261 -0.259688832
7500000 -0.080106192 -0.284104416
7600000 -0.168656688 -0.271783392
7700000 -0.25640696 -0.234713232
7800000 -0.354801536 -0.159752384
7900000 -0.418294656 0.000212699
8000000 -0.348682336 0.16488424
8100000 -0.234640336 0.236418144
8200000 -0.129691216 0.257284816
8300000 -0.04009214 0.237112528
8400000 0.019040848 0.186363424
8500000 0.028845294 0.122526232
8600000 -0.019800312 0.092765824
8700000 -0.071338096 0.158776336
8800000 0.002596323 0.28161872
8900000 0.176427296 0.27944304
9000000 0.293320128 0.159948192
9100000 0.316353216 0.009654996
9200000 0.259317392 -0.119955672
9300000 0.148550432 -0.195158352
9400000 0.015366911 -0.188129424
9500000 -0.071706704 -0.076065664
9600000 -0.01297878 0.061961916
9700000 0.152730384 0.063250848
9800000 0.239792848 -0.091589208
9900000 0.178238912 -0.265454592
10000000 0.007742125 -0.34799472
10100000 -0.181416832 -0.304849824
10200000 -0.303307008 -0.141452336
10300000 -0.275026272 0.062605748
10400000 -0.109574704 0.174566192
10500000 0.073658008 0.117342016
10600000 0.13434232 -0.063528264
10700000 0.012472655 -0.221118768
10800000 -0.193564992 -0.211991792
10900000 -0.326637344 -0.04428444
11000000 -0.291511808 0.172578624
11100000 -0.115655608 0.296509344
11200000 0.087063416 0.266535104
11300000 0.212667136 0.112466008
11400000 0.190064448 -0.088073784
11500000 0.011563069 -0.203249888
11600000 -0.192083024 -0.119611392
11700000 -0.237012096 0.095545344
11800000 -0.096228944 0.254635216
11900000 0.101231336 0.256764736
12000000 0.242376464 0.13177696
12100000 0.268645152 -0.055306136
12200000 0.15484744 -0.222516032
12300000 -0.066496804 -0.258006688
12400000 -0.239575472 -0.085601504
12500000 -0.184653872 0.150546032
12600000 0.01774424 0.229326128
12700000 0.1858568 0.140912272
12800000 0.245915152 -0.024072636
12900000 0.185229696 -0.188915856
13000000 0.015613168 -0.28482288
13100000 -0.203396688 -0.213799712
13200000 -0.272605184 0.035255532
13300000 -0.09823856 0.214058768
13400000 0.11468244 0.17688768
13500000 0.21311632 0.020167968
13600000 0.18251624 -0.144407904
13700000 0.055741664 -0.2519176
13800000 -0.125258984 -0.249039216
13900000 -0.26586592 -0.102686296
14000000 -0.231960304 0.116755976
