# HZ S RI R 50
14000000 -0.028341374 -0.00283739
14100000 -0.042397684 0.0442056
14200000 0.004531489 0.081555808
14300000 0.059206032 0.053683432
14400000 0.063029552 -0.005165913
14500000 0.017744396 -0.041598276
14600000 -0.024869696 -0.011484682
14700000 -0.02279979 0.018628002
14800000 0.008692352 0.025627078
14900000 0.01261184 0.005542339
15000000 0.03375794 0.125384512
15100000 -0.080291912 0.015182832
15200000 -0.044832344 0.077324408
15300000 0.02206929 0.093681656
15400000 0.072328872 0.051046908
15500000 0.026687196 -0.020447688
15600000 0.023718684 -0.02788742
15700000 0.001977237 -0.007501047
15800000 0.008993152 0.014643334
15900000 0.016454889 -0.008547582
16000000 -0.003467793 -0.025403908
16100000 -0.18494344 -0.00166914
16200000 -0.058146512 0.048074604
16300000 -0.027788448 0.094285496
16400000 0.044180688 0.091577816
16500000 0.074512552 0.040530164
16600000 0.063641304 -0.006728994
16700000 0.031536952 -0.02172676
16800000 0.005246285 -0.010406349
16900000 0.007673802 -0.001278235
17000000 0.014796375 -0.001107086
17100000 -0.013638459 -0.016028492
17200000 -0.036182792 -0.01562912
17300000 -0.05974952 0.041892564
17400000 -0.011249856 0.083683464
17500000 0.046808028 0.079067368
17600000 0.071312024 0.02495792
17700000 0.104292888 0.043825956
17800000 -0.013078036 0.002499058
17900000 0.012326248 0.006075051
18000000 0.027180936 -0.021032934
18100000 0.006024296 -0.056730376
18200000 -0.042206572 -0.061062708
18300000 -0.084258784 -0.020478988
18400000 -0.07365172 0.046025344
18500000 -0.009951864 0.070720536
18600000 0.033110082 0.030981614
18700000 0.025310234 -0.005467815
18800000 0.007520291 -0.014966954
18900000 0.000987909 -0.013131396
19000000 0.001850416 -0.013865416
19100000 -0.001516378 -0.027318908
19200000 -0.01797432 -0.038008032
19300000 -0.050198408 -0.032711346
19400000 -0.072591304 0.008544671
19500000 -0.042252044 0.059047656
19600000 0.014152545 0.057447104
19700000 0.042699608 0.020452794
19800000 0.036432408 -0.017071798
19900000 0.01268446 -0.036120152
20000000 -0.011583352 -0.035445096
20100000 -0.02289183 -0.02207995
20200000 -0.018321752 -0.015574796
20300000 -0.022030296 -0.026465028
20400000 -0.05443518 -0.024278274
20500000 -0.071987288 0.025768732
20600000 -0.029010958 0.07094296
20700000 0.032453022 0.05912884
20800000 0.05570122 0.005554292
20900000 0.03532088 -0.030887206
21000000 0.008286759 -0.042517856
21100000 -0.014887995 -0.038538908
21200000 -0.022385098 -0.019910772
21300000 -0.013402982 -0.023501506
21400000 -0.032977446 -0.043646516
21500000 -0.077706344 -0.018101326
21600000 -0.078290696 0.051415464
21700000 -0.016162543 0.085930832
21800000 0.047168572 0.061912684
21900000 0.068945752 0.003267753
22000000 0.043803664 -0.050121728
22100000 -0.010550147 -0.056675016
22200000 -0.035662244 -0.018768004
22300000 -0.005017824 -0.000173671
22400000 0.005360747 -0.035240376
22500000 -0.041406376 -0.057386228
22600000 -0.092360736 -0.011490468
22700000 -0.069557448 0.06167432
22800000 0.002495396 0.085058704
22900000 0.056586356 0.052740104
23000000 0.057762212 -0.02541265
23100000 0.002980238 -0.056181528
23200000 -0.030578564 -0.020414244
23300000 -0.005154395 0.015328423
23400000 0.028663842 -0.013296977
23500000 0.008969238 -0.062397052
23600000 -0.054638268 -0.062783672
23700000 -0.086272776 -0.004646129
23800000 -0.051134184 0.059495596
23900000 0.012066625 0.056384236
24000000 0.041328596 0.002563632
