# HZ S RI R 50
3000000 -0.284088256 0.26688728
3250000 0.041688736 0.006678521
3500000 0.20402136 0.085627208
3750000 0.054548928 -0.309191232
4000000 -0.336306784 0.100819832
4250000 0.081880592 0.133172928
4500000 0.149492672 0.013819964
4750000 0.064938292 -0.203220304
5000000 -0.306683968 -0.0554481
5250000 0.069975864 0.229469056
5500000 0.162698384 -0.034921276
5750000 0.036765056 -0.145644736
6000000 -0.22305744 -0.152297264
6250000 -0.04624056 0.284649888
6500000 0.211429808 -0.002134823
6750000 0.018319176 -0.114583088
7000000 -0.063379668 -0.193671904
7250000 -0.20783896 0.223294592
7500000 0.19197768 0.069534896
7750000 0.058229736 -0.066315776
8000000 0.069306032 -0.1384332
8250000 -0.27535488 0.013116304
8500000 0.116357088 0.13286284
8750000 0.017853514 -0.001480411
9000000 0.127246376 -0.046374272
9250000 -0.190194704 -0.162980752
9500000 0.003140824 0.167742432
9750000 0.046977816 -0.052773756
10000000 0.046216036 0.066434792
10250000 -0.038694424 -0.189266832
10500000 -0.058713344 0.146569376
10750000 0.062051572 -0.074389
11000000 -0.039508936 0.096010832
11250000 0.070722232 -0.150329808
11500000 -0.128882352 0.10501648
11750000 0.113036616 -0.025594922
12000000 -0.085120384 0.032753286
12250000 0.1333708 -0.0744548
12500000 -0.16479776 -0.013237109
12750000 0.085360208 0.039344888
13000000 -0.089503296 -0.01491293
13250000 0.146316224 0.023721534
13500000 -0.111663304 -0.122831488
13750000 0.017473564 0.069046128
14000000 -0.078502592 -0.045685696
14250000 0.095051592 0.128203616
14500000 0.023516668 -0.15168168
14750000 -0.036615072 0.028099252
15000000 -0.059999548 -0.068348896
15250000 -0.015783319 0.178484976
15500000 0.138243456 -0.078444072
15750000 -0.020687992 -0.038312556
16000000 -0.020823606 -0.0957684
16250000 -0.135354432 0.110600712
16500000 0.160277776 0.038982712
16750000 0.005966794 -0.093413144
17000000 0.01548132 -0.074048824
17250000 -0.172751504 -0.017429308
17500000 0.095214944 0.117271032
17750000 0.009588451 -0.079025016
18000000 0.050834024 -0.027599668
18250000 -0.115912352 -0.0974428
18500000 -0.002214198 0.141773184
18750000 0.051470084 -0.034894672
19000000 0.021437578 -0.034304192
19250000 -0.045725772 -0.085951568
19500000 -0.071021496 0.113174768
19750000 0.09464804 -0.00731429
20000000 -0.004986037 -0.0546744
20250000 0.001992876 -0.056141944
20500000 -0.129949672 0.032580006
20750000 0.084367264 0.069482456
21000000 0.037993588 -0.059665196
21250000 0.016587868 -0.054734568
21500000 -0.14707152 -0.06179266
21750000 0.013182458 0.142838944
22000000 0.096839432 -0.038254372
22250000 0.018917176 -0.039335124
22500000 -0.06941168 -0.138689008
22750000 -0.093942184 0.13554856
23000000 0.112712304 0.01597592
23250000 0.019072904 -0.022854994
23500000 0.03158947 -0.143695088
23750000 -0.162780288 0.03013373
24000000 0.064108692 0.062039988
24250000 -0.017601734 -0.002672214
24500000 0.108547704 -0.051841924
24750000 -0.128160072 -0.074704976
25000000 0.03369726 0.067325952
25250000 -0.034461208 -0.041375352
25500000 0.080374816 0.034286476
25750000 -0.052741024 -0.116714216
26000000 -0.011423977 0.06974384
26250000 -0.016185131 -0.071113456
26500000 0.015698586 0.081001152
26750000 0.026574024 -0.111986144
27000000 -0.032266668 0.06002486
27250000 0.03019593 -0.073633896
27500000 -0.044007972 0.046818972
27750000 0.065534772 -0.084489
28000000 -0.077205392 0.003901895
