# HZ S RI R 50
4000000 -0.335636096 0.100801
4100000 -0.103315656 0.25689104
4200000 0.057546708 0.17966368
4300000 0.090792024 0.102497856
4400000 0.115830464 0.066781044
4500000 0.149312496 0.012876444
4600000 0.157387584 -0.072175048
4700000 0.110046808 -0.165454768
4800000 0.001971367 -0.230052112
4900000 -0.160768912 -0.217997536
5000000 -0.308879424 -0.05649434
5100000 -0.240806336 0.19930368
5200000 -0.016409781 0.2649512
5300000 0.128461328 0.17620432
5400000 0.176024752 0.060931648
5500000 0.162108704 -0.03554038
5600000 0.116434568 -0.100236296
5700000 0.062352124 -0.134847376
5800000 0.010214898 -0.15661352
5900000 -0.062702304 -0.187003504
6000000 -0.2214872 -0.152945344
6100000 -0.304122496 0.063836312
6200000 -0.1566264 0.258516576
6300000 0.05690188 0.26632992
6400000 0.19054728 0.147067424
6500000 0.21133896 -0.002651615
6600000 0.142258032 -0.10888856
6700000 0.048214264 -0.13028136
6800000 0.00904335 -0.098226352
6900000 0.018980658 -0.119231272
7000000 -0.064179272 -0.19327464
7100000 -0.248698928 -0.124960128
7200000 -0.284213152 0.118435592
7300000 -0.09319388 0.277745696
7400000 0.11564152 0.224667952
7500000 0.1916836 0.068862744
7600000 0.139666064 -0.04804858
7700000 0.072567688 -0.06648086
7800000 0.043509376 -0.065173924
7900000 0.055151496 -0.052026884
8000000 0.069571424 -0.1389596
8100000 -0.070175352 -0.218813216
8200000 -0.25030568 -0.104086792
8300000 -0.236698032 0.130155712
8400000 -0.038820424 0.230190832
8500000 0.116618264 0.132800744
8600000 0.108101712 -0.001018806
8700000 0.033164054 -0.022586544
8800000 0.02528681 0.01910605
8900000 0.078253616 0.022946914
9000000 0.126602872 -0.047375504
9100000 0.08560364 -0.172811952
9200000 -0.094032224 -0.22044888
9300000 -0.24158968 -0.056159496
9400000 -0.164 0.139339024
9500000 0.004203615 0.167464864
9600000 0.09957404 0.075802008
9700000 0.083964376 -0.027039878
9800000 0.002731115 -0.053551544
9900000 -0.03449728 0.014389562
10000000 0.045715296 0.063380004
10100000 0.132653344 -0.031954232
10200000 0.051965692 -0.171425872
10300000 -0.130683672 -0.150989472
10400000 -0.18646248 0.031105264
10500000 -0.057878284 0.146687056
10600000 0.079310984 0.096738648
10700000 0.100105088 -0.027319666
10800000 0.005148558 -0.09363584
10900000 -0.090125952 -0.024267224
11000000 -0.039555116 0.095013784
11100000 0.102356016 0.071895832
11200000 0.127490568 -0.08394048
11300000 -0.019568756 -0.173517824
11400000 -0.167515424 -0.066716692
11500000 -0.127348256 0.105812464
11600000 0.025380494 0.140980032
11700000 0.117477768 0.03889536
11800000 0.075673888 -0.078688136
11900000 -0.045474948 -0.08541356
12000000 -0.084990328 0.033187128
12100000 0.029916668 0.102478744
12200000 0.136869088 0.004639822
12300000 0.083346832 -0.141159808
12400000 -0.080878768 -0.15618736
12500000 -0.164236144 -0.012030296
12600000 -0.075640496 0.11282624
12700000 0.053920176 0.09082748
12800000 0.084688248 -0.01967885
12900000 -0.000645849 -0.082629232
13000000 -0.08945584 -0.014964971
13100000 -0.03939126 0.10175672
13200000 0.099644128 0.087046872
13300000 0.148275776 -0.056746944
13400000 0.037678948 -0.167877056
13500000 -0.111422904 -0.121527336
13600000 -0.133224056 0.019631444
13700000 -0.032582466 0.085770776
13800000 0.047123816 0.029194096
13900000 0.0186891 -0.054141556
14000000 -0.078690264 -0.045595472
