# HZ S RI R 50
14000000 -0.084077432 0.105540736
14100000 0.06678658 0.051394424
14200000 0.091028992 -0.08052672
14300000 0.008902675 -0.185574032
14400000 -0.123061656 -0.19839776
14500000 -0.239428256 -0.118677984
14600000 -0.27763904 0.03146585
14700000 -0.190075536 0.171130416
14800000 -0.0312013 0.182993808
14900000 0.041202644 0.070975264
15000000 -0.015621483 -0.014790634
15100000 -0.103824552 -0.001090703
15200000 -0.144225104 0.07966792
15300000 -0.115692624 0.17290416
15400000 -0.028813958 0.23529344
15500000 0.09098824 0.236097552
15600000 0.187546224 0.155023264
15700000 0.195796032 0.03905472
15800000 0.142068576 -0.007630956
15900000 0.096767048 -0.008754228
16000000 0.099281896 0.006985355
16100000 0.123992176 0.00447021
16200000 0.153858288 -0.01965265
16300000 0.179169568 -0.069249256
16400000 0.17956872 -0.147649072
16500000 0.123591872 -0.23527056
16600000 0.015670145 -0.271464928
16700000 -0.078701656 -0.237939712
16800000 -0.129097712 -0.179638336
16900000 -0.147353584 -0.122922784
17000000 -0.139971008 -0.078407552
17100000 -0.118727072 -0.060774192
17200000 -0.112355928 -0.080126488
17300000 -0.164074336 -0.105193704
17400000 -0.255867296 -0.0536684
17500000 -0.28283456 0.076294856
17600000 -0.213496048 0.189994608
17700000 -0.1005074 0.236027952
17800000 0.00363181 0.21111208
17900000 0.064027748 0.137911696
18000000 0.05525232 0.05454774
18100000 -0.018918036 0.02645321
18200000 -0.07947932 0.090733392
18300000 -0.010586405 0.204046192
18400000 0.117206648 0.211259936
18500000 0.213430032 0.129201528
18600000 0.241864368 0.007751799
18700000 0.191652736 -0.103328512
18800000 0.08241232 -0.151599456
18900000 -0.022717678 -0.10300684
19000000 -0.028339432 0.006662566
19100000 0.06744704 0.0547684
19200000 0.159611808 -0.009337793
19300000 0.169166032 -0.12989792
19400000 0.084502288 -0.233495696
19500000 -0.058616748 -0.255746192
19600000 -0.187329376 -0.164099808
19700000 -0.202391888 -0.003156839
19800000 -0.085663912 0.095293976
19900000 0.043291972 0.050284352
20000000 0.075852464 -0.061630032
20100000 -0.000121415 -0.156862224
20200000 -0.129777048 -0.157907568
20300000 -0.226681088 -0.049300988
20400000 -0.201115952 0.106140104
20500000 -0.060712168 0.178990336
20600000 0.069934648 0.11370352
20700000 0.09200364 -0.012684477
20800000 0.012738832 -0.09942168
20900000 -0.100009536 -0.093124376
21000000 -0.171605904 0.001622081
21100000 -0.146958432 0.122265568
21200000 -0.036706772 0.1844208
21300000 0.07560604 0.140674096
21400000 0.106492904 0.040320772
21500000 0.05589626 -0.030762934
21600000 -0.018049602 -0.03164595
21700000 -0.060277396 0.023884428
21800000 -0.042537124 0.096940704
21900000 0.031517326 0.138252576
22000000 0.122864904 0.11273412
22100000 0.172804672 0.025096696
22200000 0.147331328 -0.069871392
22300000 0.07094952 -0.111658968
22400000 0.002487501 -0.088560064
22500000 -0.017369312 -0.03301429
22600000 0.014001543 0.0095531
22700000 0.071325408 0.006069753
22800000 0.113486592 -0.04937398
22900000 0.098629472 -0.1330636
23000000 0.018025468 -0.188532256
23100000 -0.081229584 -0.166960928
23200000 -0.129643176 -0.086855488
23300000 -0.106424056 -0.012070979
23400000 -0.049595492 0.011175705
23500000 -0.005663446 -0.016809086
23600000 -0.004607753 -0.070781072
23700000 -0.056680108 -0.112454176
23800000 -0.141261968 -0.097805808
23900000 -0.192539344 -0.012130153
24000000 -0.162614464 0.087679576
