# HZ S RI R 50
3000000 0.3395688 -0.187502864
3250000 -0.360348768 0.048455588
3500000 0.376427456 0.11261844
3750000 0.069246632 -0.433015424
4000000 -0.277607168 0.335295456
4250000 0.367693472 -0.156667856
4500000 -0.233669904 -0.386990944
4750000 -0.134086104 0.320397408
5000000 0.095129192 -0.337132544
5250000 -0.447238912 -0.016593538
5500000 -0.030631442 0.370422688
5750000 0.016322574 -0.040295604
6000000 -0.070516848 0.220783952
6250000 0.254675296 0.221434736
6500000 0.254823264 -0.157224848
6750000 0.024496372 -0.0179942
7000000 0.224174928 -0.126653296
7250000 0.01435201 -0.38395728
7500000 -0.274301568 -0.169872688
7750000 -0.254415936 -0.012051187
8000000 -0.18423976 0.065904468
8250000 -0.243104752 0.2623344
8500000 0.144658064 0.289648192
8750000 0.166012064 -0.034456348
9000000 -0.012893971 0.140420208
9250000 0.29943056 0.017186474
9500000 0.041456772 -0.277048064
9750000 -0.095312048 0.063060908
10000000 0.178596528 -0.120887248
10250000 -0.206574192 -0.242030576
10500000 -0.126074208 0.185290528
10750000 0.115027576 -0.092897744
11000000 -0.27260752 -0.05983294
11250000 0.019064418 0.267896592
11500000 0.149566896 -0.14271264
11750000 -0.227361984 0.049464952
12000000 0.14927672 0.198629248
12250000 0.08274536 -0.2308644
12500000 -0.178076192 0.143983872
12750000 0.209062976 0.093432456
13000000 0.016828388 -0.227844992
13250000 -0.070153944 0.152316496
13500000 0.207589248 -0.056647776
13750000 -0.075542184 -0.251668336
14000000 -0.085315496 0.106785416
14250000 0.06297136 -0.144217264
14500000 -0.240248576 -0.119174856
14750000 -0.109930424 0.199185184
15000000 -0.015025554 -0.016404677
15250000 -0.13937528 0.12728916
15500000 0.090326456 0.236310304
15750000 0.167863904 -0.000390892
16000000 0.099354832 0.009062149
16250000 0.169401008 -0.04036508
16500000 0.124574384 -0.235719968
16750000 -0.10814676 -0.209954096
17000000 -0.14014904 -0.080559728
17250000 -0.130661416 -0.096282032
17500000 -0.284100448 0.076157104
17750000 -0.046329184 0.232346336
18000000 0.056673764 0.055918028
18250000 -0.057153156 0.161670864
18500000 0.215650272 0.130370256
18750000 0.142283776 -0.139234784
19000000 -0.029821592 0.006242182
19250000 0.177418624 -0.067572008
19500000 -0.058348436 -0.25589448
19750000 -0.1553524 0.062481832
20000000 0.07607108 -0.061866028
20250000 -0.189045984 -0.116107976
20500000 -0.061150436 0.178736688
20750000 0.060999312 -0.065720656
21000000 -0.17211128 0.001569169
21250000 0.025487806 0.175112352
21500000 0.055753664 -0.030033754
21750000 -0.057991888 0.061769696
22000000 0.123475528 0.112621568
22250000 0.112559952 -0.100016616
22500000 -0.017383198 -0.035269428
22750000 0.095602248 -0.016239421
23000000 0.017093412 -0.187929744
23250000 -0.12681948 -0.044692652
23500000 -0.005460478 -0.014753203
23750000 -0.096579328 -0.11439868
24000000 -0.162280432 0.087937888
24250000 0.009300966 0.07863132
24500000 -0.054559456 0.00991335
24750000 -0.03135093 0.161111824
25000000 0.145070992 0.066401928
25250000 0.068168136 -0.042292256
25500000 0.061604208 0.024373918
25750000 0.157870928 -0.102761064
26000000 -0.031804868 -0.201443888
26250000 -0.105126816 -0.044938216
26500000 -0.006713 -0.09223092
26750000 -0.216173184 -0.077414904
27000000 -0.10988624 0.172245488
27250000 0.06462262 0.016721064
27500000 -0.126235632 0.042894048
27750000 0.087528768 0.16700216
28000000 0.11773752 -0.100547192
