# HZ S RI R 50
4000000 -0.278847168 0.335320384
4100000 0.211385392 0.328634464
4200000 0.384975904 0.004623852
4300000 0.291969792 -0.291295808
4400000 0.045927184 -0.42814512
4500000 -0.233702048 -0.387694688
4600000 -0.424666688 -0.123371336
4700000 -0.318575008 0.22716352
4800000 0.073673208 0.29571616
4900000 0.278342112 -0.030776342
5000000 0.100557808 -0.319707648
5100000 -0.2126384 -0.34133952
5200000 -0.41215104 -0.147656592
5300000 -0.432820832 0.116972256
5400000 -0.279664736 0.3238256
5500000 -0.030211166 0.370643904
5600000 0.158677888 0.21064288
5700000 0.108476288 -0.002462455
5800000 -0.064274556 -0.019448922
5900000 -0.134059368 0.106025512
6000000 -0.0880538 0.23570424
6100000 0.04385478 0.287602528
6200000 0.18884664 0.265622384
6300000 0.304663392 0.158445712
6400000 0.338135008 -0.00696392
6500000 0.254440432 -0.157320016
6600000 0.09125032 -0.193118352
6700000 0.000187793 -0.077929088
6800000 0.075194568 0.016050639
6900000 0.180605568 -0.018993374
7000000 0.225673856 -0.126429704
7100000 0.196056256 -0.253246336
7200000 0.090458912 -0.35558896
7300000 -0.074399736 -0.39236304
7400000 -0.234575616 -0.307966208
7500000 -0.27548144 -0.170426592
7600000 -0.263035536 -0.093740776
7700000 -0.257401888 -0.040065184
7800000 -0.250177712 0.013963269
7900000 -0.21857472 0.064457544
8000000 -0.185305056 0.065773964
8100000 -0.224853792 0.068985008
8200000 -0.270482176 0.179701184
8300000 -0.176664576 0.33064528
8400000 0.002616405 0.363098816
8500000 0.144836128 0.29024912
8600000 0.221797344 0.167469824
8700000 0.212149696 0.02415404
8800000 0.097977232 -0.064237416
8900000 -0.030154044 -0.003063468
9000000 -0.01276178 0.140593536
9100000 0.132856872 0.188417616
9200000 0.267322064 0.096720272
9300000 0.299631968 -0.069204
9400000 0.212128496 -0.220279328
9500000 0.041248464 -0.276289984
9600000 -0.119390872 -0.19098216
9700000 -0.148877712 -0.011916925
9800000 -0.008637297 0.098409616
9900000 0.137465648 0.036439792
10000000 0.179948576 -0.122445216
10100000 0.073521496 -0.26529064
10200000 -0.114119912 -0.288816288
10300000 -0.27397024 -0.158049728
10400000 -0.278902688 0.053176756
10500000 -0.125702456 0.185501152
10600000 0.05923164 0.148351616
10700000 0.134457024 -0.00779579
10800000 0.059108692 -0.16245544
10900000 -0.12372748 -0.197987456
11000000 -0.272243776 -0.060101208
11100000 -0.253191648 0.14901224
11200000 -0.084176976 0.268923904
11300000 0.113527728 0.22708296
11400000 0.217627152 0.0539947
11500000 0.147990496 -0.142485488
11600000 -0.060257808 -0.200705744
11700000 -0.218946832 -0.054494064
11800000 -0.19116376 0.144059056
11900000 -0.025088598 0.244422992
12000000 0.14969592 0.19849288
12100000 0.245323504 0.032341532
12200000 0.181928592 -0.167025152
12300000 -0.040913012 -0.239186464
12400000 -0.223104736 -0.07742496
12500000 -0.178019792 0.144414864
12600000 0.000530742 0.226216704
12700000 0.160334576 0.160623616
12800000 0.229235952 0.014195868
12900000 0.183328512 -0.144746704
13000000 0.01676218 -0.22791976
13100000 -0.164731904 -0.123667816
13200000 -0.15111008 0.08866196
13300000 0.023979102 0.166695824
13400000 0.166414 0.085341984
13500000 0.208131856 -0.057174924
13600000 0.147040496 -0.189389952
13700000 0.009870642 -0.259604544
13800000 -0.154805488 -0.206581376
13900000 -0.215776432 -0.02622709
14000000 -0.085141872 0.106438952
