# HZ S RI R 50
3000000 -0.544483392 -0.309510144
3250000 -0.230117472 0.37916768
3500000 0.260129568 0.085098872
3750000 -0.221597232 -0.226525488
4000000 0.014793761 0.424294816
4250000 0.423130624 -0.107714816
4500000 -0.214821888 -0.434358144
4750000 -0.221361392 0.393311904
5000000 0.385676992 -0.044237664
5250000 -0.240149968 -0.384406368
5500000 -0.2715008 0.348777376
5750000 0.325102912 0.20008416
6000000 0.141078816 -0.347313344
6250000 -0.298792 0.11505136
6500000 0.265527104 0.03958108
6750000 -0.031653248 -0.350855104
7000000 -0.443937408 0.00240531
7250000 -0.042017604 0.39678224
7500000 0.24724024 0.05355282
7750000 0.062467428 0.012534165
8000000 0.157757952 -0.032336712
8250000 0.097262408 -0.188669616
8500000 -0.107775928 -0.260925056
8750000 -0.3748072 -0.008030772
9000000 -0.043996956 0.303004736
9250000 0.156568992 0.083906416
9500000 0.04948104 -0.057971796
9750000 -0.000745373 0.044718196
10000000 0.162770368 -0.028453348
10250000 -0.055107144 -0.271576032
10500000 -0.252778528 0.099543784
10750000 0.089034984 0.158126784
11000000 0.098110048 -0.093464936
11250000 -0.130598872 -0.047844096
11500000 0.047574784 0.167154464
11750000 0.18080032 -0.151615744
12000000 -0.207183792 -0.176752144
12250000 -0.14282776 0.180728144
12500000 0.132901312 0.095854312
12750000 0.020401002 -0.130324944
13000000 -0.1431768 0.110478136
13250000 0.212741056 0.115817744
13500000 0.12920664 -0.233530096
13750000 -0.214661024 -0.133954216
14000000 -0.05932148 0.166818528
14250000 0.137605872 -0.077197232
14500000 -0.215267328 -0.119268352
14750000 -0.074705904 0.26550496
15000000 0.248070016 0.040812696
15250000 -0.034873488 -0.22819736
15500000 -0.137971536 0.154887216
15750000 0.214765296 0.069323224
16000000 0.084214624 -0.258517616
16250000 -0.263618256 -0.065901288
16500000 0.047498564 0.159927808
16750000 0.049017272 -0.159504704
17000000 -0.230812032 -0.007894321
17250000 -0.011366812 0.231911888
17500000 0.215092208 0.02128682
17750000 -0.014726575 -0.186160736
18000000 -0.051804704 0.050589904
18250000 0.04323388 -0.05453852
18500000 -0.09434592 -0.077357184
18750000 -0.122226224 0.090737368
19000000 0.089612072 0.155361072
19250000 0.162703072 -0.097625528
19500000 -0.086020296 -0.171396048
19750000 -0.120009288 0.084584624
20000000 0.068225144 0.008449419
20250000 -0.080449784 -0.093111224
20500000 -0.138727536 0.137380528
20750000 0.12595832 0.143505536
21000000 0.136441088 -0.037804408
21250000 0.053959516 -0.098092224
21500000 -0.007138383 -0.089508888
21750000 -0.023453114 -0.106542728
22000000 -0.199761216 -0.099963104
22250000 -0.164749648 0.194596656
22500000 0.101719808 0.185606416
22750000 0.155623856 -0.013976095
23000000 0.013057807 -0.067127464
23250000 0.078565728 0.027366188
23500000 0.086218992 -0.19076952
23750000 -0.204594704 -0.134274288
24000000 -0.1285072 0.1570232
24250000 0.119035096 0.086960576
24500000 0.029910774 -0.120367112
24750000 -0.105534128 0.060727436
25000000 0.135728448 0.046896028
25250000 0.024381778 -0.184408272
25500000 -0.206940816 -0.007831166
25750000 0.030911134 0.18318408
26000000 0.140906608 -0.070545328
26250000 -0.10254312 -0.069187816
26500000 0.036753852 0.120655384
26750000 0.157121616 -0.1084436
27000000 -0.125343488 -0.188936368
27250000 -0.144873856 0.10345192
27500000 0.09368096 0.062000092
27750000 -0.004098219 -0.127401304
28000000 -0.152716048 0.067302744
