# HZ S RI R 50
4000000 0.014990007 0.425077088
4100000 0.303600352 0.295890912
4200000 0.425387616 0.040683608
4300000 0.366391776 -0.247277088
4400000 0.12985136 -0.442095808
4500000 -0.215489616 -0.432978624
4600000 -0.472726816 -0.138376832
4700000 -0.388322144 0.268872768
4800000 -0.024928084 0.429588256
4900000 0.293109024 0.267851792
5000000 0.384565696 -0.049450932
5100000 0.245492 -0.325591904
5200000 -0.068794968 -0.432892256
5300000 -0.377714272 -0.2659708
5400000 -0.45608416 0.077135656
5500000 -0.270594592 0.349328096
5600000 0.015334046 0.41231408
5700000 0.249392368 0.297979392
5800000 0.367064896 0.083649912
5900000 0.337753728 -0.16122728
6000000 0.151068944 -0.347366528
6100000 -0.155000048 -0.339136096
6200000 -0.340050176 -0.05899126
6300000 -0.178623856 0.234223504
6400000 0.112108576 0.236503984
6500000 0.264442592 0.040013112
6600000 0.232627376 -0.182236176
6700000 0.071869992 -0.324384736
6800000 -0.14099984 -0.34285808
6900000 -0.3409824 -0.232433152
7000000 -0.44196976 0.00422114
7100000 -0.359269824 0.25172984
7200000 -0.156101072 0.383828832
7300000 0.066927308 0.372732608
7400000 0.227242416 0.23827696
7500000 0.247134048 0.052322528
7600000 0.14584488 -0.04873818
7700000 0.063109444 -0.018996924
7800000 0.080496432 0.024013946
7900000 0.122399704 0.013581318
8000000 0.155343808 -0.033099096
8100000 0.152933744 -0.102033144
8200000 0.119268424 -0.161705504
8300000 0.067475104 -0.211036144
8400000 -0.006785505 -0.248006704
8500000 -0.107609712 -0.25941176
8600000 -0.230307632 -0.221627008
8700000 -0.343849376 -0.102818864
8800000 -0.36660512 0.102297288
8900000 -0.231772992 0.273249248
9000000 -0.043005508 0.303436384
9100000 0.089654656 0.232104576
9200000 0.1495912 0.132665976
9300000 0.15444912 0.036876444
9400000 0.114243808 -0.033907568
9500000 0.0495211 -0.060586444
9600000 -0.005320448 -0.036692368
9700000 -0.017844392 0.016407575
9800000 0.02318056 0.062920852
9900000 0.107417632 0.057963032
10000000 0.171104352 -0.026764806
10100000 0.15244768 -0.157534208
10200000 0.032610912 -0.257949168
10300000 -0.149673616 -0.247607728
10400000 -0.279018528 -0.093714144
10500000 -0.2525788 0.101192264
10600000 -0.113407184 0.207379008
10700000 0.034811568 0.196487456
10800000 0.1292406 0.110582944
10900000 0.149549904 -0.001274024
11000000 0.100397168 -0.094839488
11100000 0.00455554 -0.135252832
11200000 -0.09771824 -0.09755364
11300000 -0.14409928 0.00964624
11400000 -0.090916384 0.12723172
11500000 0.04662544 0.168824352
11600000 0.175579104 0.086108744
11700000 0.210064112 -0.07178744
11800000 0.119883024 -0.216304352
11900000 -0.051102072 -0.26000488
12000000 -0.208702752 -0.175542112
12100000 -0.264408656 -0.011444507
12200000 -0.202785232 0.136818864
12300000 -0.07474824 0.205135344
12400000 0.053217964 0.1828804
12500000 0.1345576 0.096351648
12600000 0.14497592 -0.016496796
12700000 0.07780168 -0.109731408
12800000 -0.042682536 -0.129015416
12900000 -0.146436752 -0.041326624
13000000 -0.143370176 0.110466256
13100000 -0.010983964 0.210285408
13200000 0.155453968 0.174786112
13300000 0.245352112 0.039605908
13400000 0.231905568 -0.117281536
13500000 0.128275184 -0.233805168
13600000 -0.024509734 -0.267285376
13700000 -0.16863792 -0.1999716
13800000 -0.236303872 -0.055367604
13900000 -0.190287536 0.094256064
14000000 -0.059478972 0.167858672
