# HZ S RI R 50
14000000 -0.060405964 0.167893648
14100000 0.080283656 0.128269688
14200000 0.150341696 -0.000154891
14300000 0.095195312 -0.144236224
14400000 -0.05886226 -0.200847984
14500000 -0.216299792 -0.118711632
14600000 -0.263068048 0.065059156
14700000 -0.161127344 0.226571584
14800000 0.017618808 0.271919552
14900000 0.17547056 0.194639632
15000000 0.247507504 0.039641416
15100000 0.208219216 -0.127108336
15200000 0.060169064 -0.228662768
15300000 -0.125596448 -0.190539424
15400000 -0.216820656 -0.018396382
15500000 -0.140124192 0.154481392
15600000 0.026855086 0.20620816
15700000 0.170275328 0.134524224
15800000 0.234849472 -0.002311637
15900000 0.200611792 -0.152905008
16000000 0.082860312 -0.258743168
16100000 -0.087493752 -0.27056736
16200000 -0.233833392 -0.157742592
16300000 -0.255732352 0.034585612
16400000 -0.127548664 0.17205608
16500000 0.0469925 0.16149864
16600000 0.140089216 0.032214216
16700000 0.106000592 -0.111245536
16800000 -0.019855886 -0.181514944
16900000 -0.15973408 -0.139002528
17000000 -0.231699232 -0.008753996
17100000 -0.196286544 0.13585416
17200000 -0.081367288 0.220910416
17300000 0.055956404 0.222128688
17400000 0.16682648 0.146185104
17500000 0.214067808 0.020732348
17600000 0.1763632 -0.11106672
17700000 0.057754116 -0.188683392
17800000 -0.080314896 -0.151252352
17900000 -0.122904648 -0.02700212
18000000 -0.053750128 0.051425676
18100000 0.024660052 0.036450076
18200000 0.05099406 -0.023311794
18300000 0.02416076 -0.077906072
18400000 -0.03462876 -0.098647016
18500000 -0.095695888 -0.077118232
18600000 -0.134995248 -0.020056764
18700000 -0.137579216 0.054803344
18800000 -0.096138736 0.125328096
18900000 -0.014774602 0.168014656
19000000 0.090371576 0.156070896
19100000 0.17246432 0.073436368
19200000 0.184826112 -0.044012128
19300000 0.127563416 -0.142086832
19400000 0.026206322 -0.191391824
19500000 -0.087521096 -0.173921488
19600000 -0.1681504 -0.08345236
19700000 -0.1612444 0.03860326
19800000 -0.071391312 0.1093202
19900000 0.02685287 0.085508424
20000000 0.067420384 0.0094367
20100000 0.038898216 -0.0661607
20200000 -0.037814496 -0.098412144
20300000 -0.123562176 -0.066504388
20400000 -0.170647856 0.02688947
20500000 -0.138687664 0.14022488
20600000 -0.03231781 0.205349472
20700000 0.086364592 0.182069264
20800000 0.152052032 0.102715576
20900000 0.161695056 0.021129392
21000000 0.13969384 -0.03876146
21100000 0.106733016 -0.076196168
21200000 0.07043832 -0.097762624
21300000 0.035746256 -0.105555256
21400000 0.006575716 -0.101340648
21500000 -0.012982508 -0.090054152
21600000 -0.018636146 -0.08195204
21700000 -0.019372614 -0.090572704
21800000 -0.040821668 -0.118923976
21900000 -0.105938088 -0.138582032
22000000 -0.201040768 -0.096456672
22100000 -0.252234432 0.02192023
22200000 -0.2113344 0.1515808
22300000 -0.105967352 0.2274096
22400000 0.011333538 0.232831376
22500000 0.10498452 0.185785792
22600000 0.158919504 0.107552264
22700000 0.167856272 0.021483538
22800000 0.134807824 -0.049315508
22900000 0.072215496 -0.0845
23000000 0.010253643 -0.067454424
23100000 -0.008449622 -0.01133662
23200000 0.03879778 0.031449788
23300000 0.113232696 0.004094204
23400000 0.141514112 -0.091048856
23500000 0.084560072 -0.190623312
23600000 -0.03565152 -0.231455024
23700000 -0.161376304 -0.184234656
23800000 -0.232631328 -0.066091896
23900000 -0.216864128 0.068501512
24000000 -0.127219576 0.160643664
