# HZ S RI R 50
14000000 -0.344465184 0.15829136
14100000 -0.278821152 0.236291808
14200000 -0.18976448 0.285964288
14300000 -0.102313112 0.315333728
14400000 -0.012131607 0.310226848
14500000 0.06546052 0.277004448
14600000 0.119990808 0.221295936
14700000 0.141249984 0.15311072
14800000 0.122651056 0.092411104
14900000 0.071991336 0.061880872
15000000 0.01385403 0.080909128
15100000 -0.016296465 0.142726208
15200000 0.006392834 0.222097232
15300000 0.073991472 0.276642304
15400000 0.158716944 0.292668256
15500000 0.239893824 0.275779776
15600000 0.30739776 0.236412416
15700000 0.358015104 0.183706448
15800000 0.391630496 0.123240376
15900000 0.416604224 0.065230868
16000000 0.428257248 0.003183307
16100000 0.429259136 -0.057665228
16200000 0.421252512 -0.116921512
16300000 0.404978176 -0.17384568
16400000 0.381093568 -0.228699216
16500000 0.349210976 -0.280830624
16600000 0.310102176 -0.329258848
16700000 0.260803248 -0.372230272
16800000 0.203656048 -0.409186336
16900000 0.137770608 -0.43775296
17000000 0.064038932 -0.455871648
17100000 -0.01683072 -0.460325568
17200000 -0.10197304 -0.447622048
17300000 -0.188170384 -0.415293024
17400000 -0.268506784 -0.36071856
17500000 -0.337127552 -0.28532432
17600000 -0.387023488 -0.190630704
17700000 -0.409979872 -0.081230136
17800000 -0.400386688 0.033010464
17900000 -0.356464608 0.14034024
18000000 -0.276434368 0.227319808
18100000 -0.173231984 0.280835168
18200000 -0.066862024 0.288462496
18300000 0.030880574 0.255593264
18400000 0.099611184 0.186072608
18500000 0.120749008 0.093848552
18600000 0.081735744 0.007950087
18700000 -0.011227188 -0.02994879
18800000 -0.111651104 0.013903592
18900000 -0.157433696 0.120633968
19000000 -0.13058852 0.2327104
19100000 -0.053965712 0.31274592
19200000 0.041484892 0.350083744
19300000 0.13640336 0.351808928
19400000 0.220035568 0.327396544
19500000 0.28881664 0.286868384
19600000 0.343526816 0.23588624
19700000 0.384441152 0.178679824
19800000 0.414166176 0.118267184
19900000 0.433586816 0.05399942
20000000 0.440627488 -0.006500071
20100000 0.43942 -0.068591744
20200000 0.428873792 -0.12964456
20300000 0.409917696 -0.188446944
20400000 0.382076512 -0.24491096
20500000 0.345288992 -0.29733344
20600000 0.299662816 -0.345443584
20700000 0.246184336 -0.387543584
20800000 0.182303168 -0.42026848
20900000 0.109986984 -0.443447744
21000000 0.03194134 -0.4534736
21100000 -0.052226816 -0.447718848
21200000 -0.13908216 -0.422577696
21300000 -0.222746096 -0.37424832
21400000 -0.295707744 -0.301780288
21500000 -0.348562144 -0.207225392
21600000 -0.371253344 -0.095834936
21700000 -0.355038752 0.019642244
21800000 -0.298152576 0.12214184
21900000 -0.207430224 0.193514576
22000000 -0.097894336 0.218612304
22100000 0.003645601 0.188989392
22200000 0.067531848 0.115009032
22300000 0.072540312 0.025192526
22400000 0.01861438 -0.043940264
22500000 -0.070613664 -0.057642032
22600000 -0.151825776 -0.008380947
22700000 -0.191432352 0.0858586
22800000 -0.17642832 0.1881276
22900000 -0.117890504 0.27060224
23000000 -0.036401284 0.321572896
23100000 0.051269528 0.341285408
23200000 0.134662832 0.335962176
23300000 0.20842976 0.311230688
23400000 0.270939296 0.273614112
23500000 0.321760736 0.226995232
23600000 0.360666112 0.175018512
23700000 0.38900752 0.11971308
23800000 0.407010176 0.06295508
23900000 0.415390752 0.00537613
24000000 0.417270144 -0.05105436
