# HZ S RI R 50
3000000 0.345396352 0.436099296
3250000 0.48999616 0.225114704
3500000 0.5045576 -0.073238608
3750000 0.072099432 -0.321709088
4000000 0.199760544 0.350822016
4250000 0.4984208 0.051308872
4500000 0.486181024 -0.197184928
4750000 0.376289696 -0.3893112
5000000 0.187549152 -0.522416128
5250000 -0.069268216 -0.560489664
5500000 -0.343074496 -0.452959936
5750000 -0.526715936 -0.18487896
6000000 -0.518914464 0.146493296
6250000 -0.32726656 0.398546528
6500000 -0.052989072 0.48962544
6750000 0.195646288 0.421397088
7000000 0.335130464 0.226880576
7250000 0.290390592 0.047772972
7500000 0.121738792 0.075904352
7750000 0.284484032 0.189565808
8000000 0.410246048 0.064384408
8250000 0.443092352 -0.100930336
8500000 0.391617888 -0.263754992
8750000 0.277468032 -0.394430592
9000000 0.103600456 -0.4783016
9250000 -0.115068856 -0.47764608
9500000 -0.332567456 -0.355022208
9750000 -0.463570016 -0.11406432
10000000 -0.42316064 0.17060696
10250000 -0.23347912 0.362847616
10500000 0.007171215 0.404218336
10750000 0.194411952 0.302728832
11000000 0.24154632 0.13366112
11250000 0.118816344 0.074463616
11500000 0.156308688 0.224953264
11750000 0.344794304 0.19253728
12000000 0.441175136 0.037764464
12250000 0.443185984 -0.131576624
12500000 0.374689664 -0.283525984
12750000 0.247840896 -0.399671776
13000000 0.0739002 -0.457537472
13250000 -0.123165192 -0.432929024
13500000 -0.302415296 -0.308276
13750000 -0.39966496 -0.088579488
14000000 -0.344809728 0.15902256
14250000 -0.148803984 0.306963168
14500000 0.065134412 0.277137056
14750000 0.135275328 0.120476496
15000000 0.01469263 0.08116436
15250000 0.036751632 0.253820208
15500000 0.240292576 0.2758392
15750000 0.377819456 0.155537408
16000000 0.428344672 0.003189406
16250000 0.414696576 -0.146146144
16500000 0.349707072 -0.281370592
16750000 0.23334968 -0.392138112
17000000 0.06382084 -0.45616112
17250000 -0.145847696 -0.434367936
17500000 -0.337869248 -0.28517408
17750000 -0.409159456 -0.02376974
18000000 -0.276423168 0.227761696
18250000 -0.015560788 0.277312576
18500000 0.121051792 0.094271256
18750000 -0.064678164 -0.018285692
19000000 -0.130365368 0.232742896
19250000 0.090149392 0.35470816
19500000 0.289103328 0.286751968
19750000 0.400988928 0.148542432
20000000 0.440860384 -0.006707392
20250000 0.420253472 -0.159590944
20500000 0.345764192 -0.297808512
20750000 0.214956 -0.404566624
21000000 0.031804896 -0.453703808
21250000 -0.18165768 -0.401157696
21500000 -0.348720576 -0.20723872
21750000 -0.331543936 0.073868296
22000000 -0.097942584 0.219126768
22250000 0.07860508 0.070361776
22500000 -0.069639344 -0.05809534
22750000 -0.190057504 0.137208608
23000000 -0.036886576 0.321051808
23250000 0.172983104 0.325233856
23500000 0.3215416 0.227147184
23750000 0.398969248 0.09131344
24000000 0.416886624 -0.051161056
24250000 0.385185792 -0.18674272
24500000 0.30577072 -0.306085632
24750000 0.178484032 -0.393561024
25000000 0.005500729 -0.419443136
25250000 -0.172452336 -0.338704928
25500000 -0.256237088 -0.15428968
25750000 -0.176131968 -0.005041865
26000000 -0.0910278 -0.024249886
26250000 -0.1578696 -0.042337844
26500000 -0.22196384 0.084234176
26750000 -0.147342064 0.247957456
27000000 0.018529286 0.320839264
27250000 0.18290968 0.29478624
27500000 0.304704 0.203632432
27750000 0.37308864 0.079887064
28000000 0.389409728 -0.056141352
