# HZ S RI R 50
4000000 0.199800912 0.352175968
4100000 0.396032576 0.23913504
4200000 0.478025312 0.1124026
4300000 0.50756384 -0.004236529
4400000 0.504564352 -0.106374152
4500000 0.485949632 -0.197204528
4600000 0.451662144 -0.279804352
4700000 0.404219488 -0.353718592
4800000 0.344237696 -0.4209712
4900000 0.27237216 -0.47768464
5000000 0.187863104 -0.521871456
5100000 0.091461208 -0.552746048
5200000 -0.014334989 -0.563340288
5300000 -0.124642584 -0.552162624
5400000 -0.237063904 -0.516717984
5500000 -0.343869536 -0.452530208
5600000 -0.435087808 -0.361910528
5700000 -0.503458912 -0.247872464
5800000 -0.541352128 -0.118563352
5900000 -0.546307648 0.016565556
6000000 -0.52219552 0.15626816
6100000 -0.458047136 0.263480928
6200000 -0.37538384 0.3590848
6300000 -0.274945664 0.430116384
6400000 -0.164721984 0.47414064
6500000 -0.052866588 0.489211264
6600000 0.054288732 0.478151072
6700000 0.151076416 0.444792
6800000 0.236666608 0.391643264
6900000 0.30109728 0.316214304
7000000 0.335728256 0.226730592
7100000 0.332330432 0.14260288
7200000 0.307192064 0.07712936
7300000 0.258425392 0.020330522
7400000 0.175849456 0.011516781
7500000 0.121277592 0.079377464
7600000 0.151993552 0.167170176
7700000 0.240489424 0.200460128
7800000 0.322138368 0.171845808
7900000 0.374891008 0.120260616
8000000 0.411314304 0.064496832
8100000 0.435150432 0.000861755
8200000 0.444168192 -0.06670194
8300000 0.439720736 -0.134998848
8400000 0.421453536 -0.20197528
8500000 0.391735264 -0.263602944
8600000 0.352546976 -0.31996832
8700000 0.30503808 -0.371008768
8800000 0.247248464 -0.416110048
8900000 0.179608528 -0.452630016
9000000 0.103152432 -0.478246368
9100000 0.019363822 -0.490512992
9200000 -0.069901136 -0.486583136
9300000 -0.161264304 -0.464934144
9400000 -0.252019136 -0.420929056
9500000 -0.333158112 -0.356540928
9600000 -0.401468192 -0.271852704
9700000 -0.449679936 -0.170067072
9800000 -0.473093792 -0.054738988
9900000 -0.461564288 0.06172276
10000000 -0.423487744 0.171988224
10100000 -0.359710976 0.264321472
10200000 -0.278574976 0.336104736
10300000 -0.185963616 0.384307712
10400000 -0.08854112 0.407054688
10500000 0.007353171 0.404762048
10600000 0.094830576 0.378666752
10700000 0.166651056 0.331944224
10800000 0.217549088 0.271259392
10900000 0.244370752 0.202334192
11000000 0.241883792 0.133153768
11100000 0.20694648 0.078699336
11200000 0.146827616 0.062539064
11300000 0.096710592 0.100064712
11400000 0.098555624 0.172117648
11500000 0.155534464 0.225272688
11600000 0.235359232 0.238391424
11700000 0.31172608 0.21482424
11800000 0.373169344 0.166357584
11900000 0.414473344 0.105208336
12000000 0.441433216 0.037560048
12100000 0.451666848 -0.031022138
12200000 0.44873392 -0.098500528
12300000 0.43507216 -0.164353456
12400000 0.409968128 -0.226123952
12500000 0.37493008 -0.284003392
12600000 0.33073968 -0.33581776
12700000 0.277351328 -0.380478208
12800000 0.21585144 -0.413409312
12900000 0.148109232 -0.443340736
13000000 0.074267936 -0.457599264
13100000 -0.004074996 -0.458989216
13200000 -0.083724376 -0.445698304
13300000 -0.162638688 -0.41649776
13400000 -0.236525248 -0.371495104
13500000 -0.303053184 -0.308014176
13600000 -0.355999808 -0.229692864
13700000 -0.391087904 -0.13801296
13800000 -0.402588224 -0.037356884
13900000 -0.38778688 0.065113188
14000000 -0.34498496 0.159906736
